Freq.	V(out)/V(in)
1.00000000000000e+000	(-1.10711850232519e+002dB,3.76025096977478e-001°)
1.02329299228075e+000	(-1.10311832896457e+002dB,3.84783081524034e-001°)
1.04712854805090e+000	(-1.09911814743455e+002dB,3.93745011019186e-001°)
1.07151930523761e+000	(-1.09511795735009e+002dB,4.02915632038110e-001°)
1.09647819614318e+000	(-1.09111775830871e+002dB,4.12299801439956e-001°)
1.12201845430196e+000	(-1.08711754988734e+002dB,4.21902488909903e-001°)
1.14815362149688e+000	(-1.08311733164478e+002dB,4.31728779577036e-001°)
1.17489755493953e+000	(-1.07911710311835e+002dB,4.41783876669794e-001°)
1.20226443461741e+000	(-1.07511686382306e+002dB,4.52073104247632e-001°)
1.23026877081238e+000	(-1.07111661325137e+002dB,4.62601909988676e-001°)
1.25892541179417e+000	(-1.06711635087232e+002dB,4.73375868039838e-001°)
1.28824955169313e+000	(-1.06311607612986e+002dB,4.84400681934233e-001°)
1.31825673855641e+000	(-1.05911578844143e+002dB,4.95682187569549e-001°)
1.34896288259165e+000	(-1.05511548719617e+002dB,5.07226356257413e-001°)
1.38038426460288e+000	(-1.05111517175704e+002dB,5.19039297845357e-001°)
1.41253754462275e+000	(-1.04711484145372e+002dB,5.31127263894858e-001°)
1.44543977074593e+000	(-1.04311449558665e+002dB,5.43496650945094e-001°)
1.47910838816821e+000	(-1.03911413342306e+002dB,5.56154003847857e-001°)
1.51356124843621e+000	(-1.03511375419467e+002dB,5.69106019162903e-001°)
1.54881661891248e+000	(-1.03111335709782e+002dB,5.82359548647663e-001°)
1.58489319246111e+000	(-1.02711294129005e+002dB,5.95921602810818e-001°)
1.62181009735893e+000	(-1.02311250589071e+002dB,6.09799354554814e-001°)
1.65958690743756e+000	(-1.01911204997701e+002dB,6.24000142890497e-001°)
1.69824365246174e+000	(-1.01511157258250e+002dB,6.38531476737122e-001°)
1.73780082874937e+000	(-1.01111107269555e+002dB,6.53401038805966e-001°)
1.77827941003892e+000	(-1.00711054925517e+002dB,6.68616689564998e-001°)
1.81970085860998e+000	(-1.00311000115457e+002dB,6.84186471309587e-001°)
1.86208713666287e+000	(-9.99109427230154e+001dB,7.00118612283019e-001°)
1.90546071796325e+000	(-9.95108826267241e+001dB,7.16421530931171e-001°)
1.94984459975804e+000	(-9.91108196990848e+001dB,7.33103840213480e-001°)
1.99526231496888e+000	(-9.87107538068186e+001dB,7.50174352029304e-001°)
2.04173794466953e+000	(-9.83106848103805e+001dB,7.67642081731922e-001°)
2.08929613085404e+000	(-9.79106125635244e+001dB,7.85516252732538e-001°)
2.13796208950223e+000	(-9.75105369130918e+001dB,8.03806301212497e-001°)
2.18776162394955e+000	(-9.71104576990611e+001dB,8.22521880937160e-001°)
2.23872113856834e+000	(-9.67103747533929e+001dB,8.41672868150159e-001°)
2.29086765276777e+000	(-9.63102879004758e+001dB,8.61269366604483e-001°)
2.34422881531992e+000	(-9.59101969564287e+001dB,8.81321712666499e-001°)
2.39883291901949e+000	(-9.55101017285254e+001dB,9.01840480542761e-001°)
2.45470891568503e+000	(-9.51100020151432e+001dB,9.22836487616040e-001°)
2.51188643150958e+000	(-9.47098976050684e+001dB,9.44320799877646e-001°)
2.57039578276886e+000	(-9.43097882772768e+001dB,9.66304737488400e-001°)
2.63026799189538e+000	(-9.39096738002959e+001dB,9.88799880436092e-001°)
2.69153480392691e+000	(-9.35095539317091e+001dB,1.01181807431186e+000°)
2.75422870333816e+000	(-9.31094284177871e+001dB,1.03537143620688e+000°)
2.81838293126445e+000	(-9.27092969928014e+001dB,1.05947236071727e+000°)
2.88403150312660e+000	(-9.23091593787153e+001dB,1.08413352607581e+000°)
2.95120922666638e+000	(-9.19090152841755e+001dB,1.10936790038580e+000°)
3.01995172040201e+000	(-9.15088644042949e+001dB,1.13518874799609e+000°)
3.09029543251359e+000	(-9.11087064198370e+001dB,1.16160963598413e+000°)
3.16227766016837e+000	(-9.07085409965765e+001dB,1.18864444075542e+000°)
3.23593656929628e+000	(-9.03083677845320e+001dB,1.21630735477794e+000°)
3.31131121482591e+000	(-8.99081864174231e+001dB,1.24461289343760e+000°)
3.38844156139202e+000	(-8.95079965116479e+001dB,1.27357590200636e+000°)
3.46736850452531e+000	(-8.91077976657024e+001dB,1.30321156274023e+000°)
3.54813389233575e+000	(-8.87075894591361e+001dB,1.33353540210764e+000°)
3.63078054770101e+000	(-8.83073714517863e+001dB,1.36456329812592e+000°)
3.71535229097172e+000	(-8.79071431830149e+001dB,1.39631148784596e+000°)
3.80189396320560e+000	(-8.75069041704175e+001dB,1.42879657492936e+000°)
3.89045144994280e+000	(-8.71066539089598e+001dB,1.46203553736632e+000°)
3.98107170553496e+000	(-8.67063918700054e+001dB,1.49604573531311e+000°)
4.07380277804112e+000	(-8.63061175001794e+001dB,1.53084491905275e+000°)
4.16869383470335e+000	(-8.59058302201424e+001dB,1.56645123705776e+000°)
4.26579518801592e+000	(-8.55055294233518e+001dB,1.60288324418477e+000°)
4.36515832240165e+000	(-8.51052144749395e+001dB,1.64015990997823e+000°)
4.46683592150962e+000	(-8.47048847104105e+001dB,1.67830062709177e+000°)
4.57088189614874e+000	(-8.43045394340250e+001dB,1.71732521979074e+000°)
4.67735141287197e+000	(-8.39041779176143e+001dB,1.75725395260620e+000°)
4.78630092322637e+000	(-8.35037993988176e+001dB,1.79810753903467e+000°)
4.89778819368445e+000	(-8.31034030798989e+001dB,1.83990715038467e+000°)
5.01187233627271e+000	(-8.27029881256233e+001dB,1.88267442467037e+000°)
5.12861383991364e+000	(-8.23025536617933e+001dB,1.92643147561622e+000°)
5.24807460249771e+000	(-8.19020987735106e+001dB,1.97120090172933e+000°)
5.37031796370252e+000	(-8.15016225031311e+001dB,2.01700579544494e+000°)
5.49540873857623e+000	(-8.11011238483242e+001dB,2.06386975232444e+000°)
5.62341325190348e+000	(-8.07006017600184e+001dB,2.11181688031666e+000°)
5.75439937337156e+000	(-8.03000551403736e+001dB,2.16087180905974e+000°)
5.88843655355588e+000	(-7.98994828403676e+001dB,2.21105969921141e+000°)
6.02559586074356e+000	(-7.94988836574698e+001dB,2.26240625179544e+000°)
6.16595001861481e+000	(-7.90982563332912e+001dB,2.31493771755959e+000°)
6.30957344480192e+000	(-7.86975995509649e+001dB,2.36868090633407e+000°)
6.45654229034654e+000	(-7.82969119323501e+001dB,2.42366319633357e+000°)
6.60693448007594e+000	(-7.78961920355061e+001dB,2.47991254346947e+000°)
6.76082975391980e+000	(-7.74954383515151e+001dB,2.53745749053908e+000°)
6.91830970918935e+000	(-7.70946493014551e+001dB,2.59632717638174e+000°)
7.07945784384136e+000	(-7.66938232334323e+001dB,2.65655134492981e+000°)
7.24435960074988e+000	(-7.62929584190935e+001dB,2.71816035410256e+000°)
7.41310241300916e+000	(-7.58920530500790e+001dB,2.78118518456105e+000°)
7.58577575029182e+000	(-7.54911052346069e+001dB,2.84565744830574e+000°)
7.76247116628690e+000	(-7.50901129935794e+001dB,2.91160939701980e+000°)
7.94328234724279e+000	(-7.46890742567015e+001dB,2.97907393021730e+000°)
8.12830516164097e+000	(-7.42879868581377e+001dB,3.04808460304302e+000°)
8.31763771102669e+000	(-7.38868485327143e+001dB,3.11867563384484e+000°)
8.51138038202374e+000	(-7.34856569110897e+001dB,3.19088191132056e+000°)
8.70963589956078e+000	(-7.30844095150659e+001dB,3.26473900125615e+000°)
8.91250938133743e+000	(-7.26831037530411e+001dB,3.34028315288479e+000°)
9.12010839355907e+000	(-7.22817369147307e+001dB,3.41755130466156e+000°)
9.33254300796988e+000	(-7.18803061659746e+001dB,3.49658108953731e+000°)
9.54992586021433e+000	(-7.14788085432049e+001dB,3.57741083957469e+000°)
9.77237220955808e+000	(-7.10772409479201e+001dB,3.66007958996406e+000°)
9.99999999999997e+000	(-7.06756001405790e+001dB,3.74462708218144e+000°)
1.02329299228075e+001	(-7.02738827345314e+001dB,3.83109376642769e+000°)
1.04712854805090e+001	(-6.98720851895324e+001dB,3.91952080313115e+000°)
1.07151930523760e+001	(-6.94702038052080e+001dB,4.00995006347602e+000°)
1.09647819614318e+001	(-6.90682347139002e+001dB,4.10242412886861e+000°)
1.12201845430196e+001	(-6.86661738738719e+001dB,4.19698628926498e+000°)
1.14815362149688e+001	(-6.82640170613717e+001dB,4.29368054022207e+000°)
1.17489755493953e+001	(-6.78617598632175e+001dB,4.39255157858509e+000°)
1.20226443461741e+001	(-6.74593976684406e+001dB,4.49364479669017e+000°)
1.23026877081238e+001	(-6.70569256605128e+001dB,4.59700627505307e+000°)
1.25892541179416e+001	(-6.66543388080166e+001dB,4.70268277317954e+000°)
1.28824955169313e+001	(-6.62516318561674e+001dB,4.81072171866987e+000°)
1.31825673855640e+001	(-6.58487993174140e+001dB,4.92117119424601e+000°)
1.34896288259165e+001	(-6.54458354618133e+001dB,5.03407992262440e+000°)
1.38038426460288e+001	(-6.50427343070967e+001dB,5.14949724905943e+000°)
1.41253754462275e+001	(-6.46394896086137e+001dB,5.26747312152048e+000°)
1.44543977074592e+001	(-6.42360948485532e+001dB,5.38805806799413e+000°)
1.47910838816820e+001	(-6.38325432252255e+001dB,5.51130317116317e+000°)
1.51356124843620e+001	(-6.34288276414892e+001dB,5.63726003980739e+000°)
1.54881661891248e+001	(-6.30249406938517e+001dB,5.76598077718606e+000°)
1.58489319246111e+001	(-6.26208746596897e+001dB,5.89751794567380e+000°)
1.62181009735892e+001	(-6.22166214856588e+001dB,6.03192452787162e+000°)
1.65958690743755e+001	(-6.18121727747584e+001dB,6.16925388369061e+000°)
1.69824365246174e+001	(-6.14075197737318e+001dB,6.30955970324490e+000°)
1.73780082874937e+001	(-6.10026533596156e+001dB,6.45289595520957e+000°)
1.77827941003892e+001	(-6.05975640262707e+001dB,6.59931683046736e+000°)
1.81970085860998e+001	(-6.01922418706019e+001dB,6.74887668072920e+000°)
1.86208713666286e+001	(-5.97866765785010e+001dB,6.90162995178427e+000°)
1.90546071796324e+001	(-5.93808574104262e+001dB,7.05763111103723e+000°)
1.94984459975804e+001	(-5.89747731867812e+001dB,7.21693456920723e+000°)
1.99526231496887e+001	(-5.85684122731259e+001dB,7.37959459556674e+000°)
2.04173794466952e+001	(-5.81617625652429e+001dB,7.54566522664498e+000°)
2.08929613085403e+001	(-5.77548114738502e+001dB,7.71520016786701e+000°)
2.13796208950222e+001	(-5.73475459093152e+001dB,7.88825268782589e+000°)
2.18776162394954e+001	(-5.69399522663346e+001dB,8.06487550491498e+000°)
2.23872113856833e+001	(-5.65320164085271e+001dB,8.24512066573900e+000°)
2.29086765276776e+001	(-5.61237236528884e+001dB,8.42903941515072e+000°)
2.34422881531991e+001	(-5.57150587545337e+001dB,8.61668205738632e+000°)
2.39883291901948e+001	(-5.53060058914666e+001dB,8.80809780799762e+000°)
2.45470891568502e+001	(-5.48965486495677e+001dB,9.00333463618138e+000°)
2.51188643150957e+001	(-5.44866700078113e+001dB,9.20243909712531e+000°)
2.57039578276885e+001	(-5.40763523237578e+001dB,9.40545615398284e+000°)
2.63026799189537e+001	(-5.36655773196145e+001dB,9.61242898920980e+000°)
2.69153480392690e+001	(-5.32543260689334e+001dB,9.82339880489297e+000°)
2.75422870333815e+001	(-5.28425789836596e+001dB,1.00384046116635e+001°)
2.81838293126444e+001	(-5.24303158018991e+001dB,1.02574830059165e+001°)
2.88403150312659e+001	(-5.20175155769406e+001dB,1.04806679353319e+001°)
2.95120922666637e+001	(-5.16041566670571e+001dB,1.07079904520882e+001°)
3.01995172040200e+001	(-5.11902167262663e+001dB,1.09394784537345e+001°)
3.09029543251358e+001	(-5.07756726964813e+001dB,1.11751564116441e+001°)
3.16227766016837e+001	(-5.03605008014058e+001dB,1.14150450869315e+001°)
3.23593656929627e+001	(-4.99446765414108e+001dB,1.16591612336170e+001°)
3.31131121482590e+001	(-4.95281746907697e+001dB,1.19075172894035e+001°)
3.38844156139201e+001	(-4.91109692962915e+001dB,1.21601210537355e+001°)
3.46736850452530e+001	(-4.86930336786235e+001dB,1.24169753538922e+001°)
3.54813389233574e+001	(-4.82743404355393e+001dB,1.26780776988350e+001°)
3.63078054770100e+001	(-4.78548614477820e+001dB,1.29434199215328e+001°)
3.71535229097171e+001	(-4.74345678875820e+001dB,1.32129878101864e+001°)
3.80189396320559e+001	(-4.70134302304955e+001dB,1.34867607289808e+001°)
3.89045144994279e+001	(-4.65914182696329e+001dB,1.37647112288576e+001°)
3.98107170553495e+001	(-4.61685011342771e+001dB,1.40468046498103e+001°)
4.07380277804111e+001	(-4.57446473111420e+001dB,1.43329987148245e+001°)
4.16869383470333e+001	(-4.53198246699315e+001dB,1.46232431174644e+001°)
4.26579518801591e+001	(-4.48940004927615e+001dB,1.49174791038926e+001°)
4.36515832240164e+001	(-4.44671415078864e+001dB,1.52156390510308e+001°)
4.46683592150961e+001	(-4.40392139275894e+001dB,1.55176460424596e+001°)
4.57088189614873e+001	(-4.36101834910192e+001dB,1.58234134439770e+001°)
4.67735141287196e+001	(-4.31800155114368e+001dB,1.61328444805816e+001°)
4.78630092322636e+001	(-4.27486749287713e+001dB,1.64458318174121e+001°)
4.89778819368444e+001	(-4.23161263664871e+001dB,1.67622571463362e+001°)
5.01187233627270e+001	(-4.18823341947414e+001dB,1.70819907817692e+001°)
5.12861383991362e+001	(-4.14472625975522e+001dB,1.74048912671166e+001°)
5.24807460249770e+001	(-4.10108756461836e+001dB,1.77308049954551e+001°)
5.37031796370250e+001	(-4.05731373774456e+001dB,1.80595658473844e+001°)
5.49540873857622e+001	(-4.01340118772167e+001dB,1.83909948486034e+001°)
5.62341325190346e+001	(-3.96934633694123e+001dB,1.87248998506845e+001°)
5.75439937337154e+001	(-3.92514563098796e+001dB,1.90610752383553e+001°)
5.88843655355586e+001	(-3.88079554854673e+001dB,1.93993016662916e+001°)
6.02559586074355e+001	(-3.83629261176049e+001dB,1.97393458288332e+001°)
6.16595001861479e+001	(-3.79163339709717e+001dB,2.00809602660803e+001°)
6.30957344480190e+001	(-3.74681454655146e+001dB,2.04238832089084e+001°)
6.45654229034652e+001	(-3.70183277931114e+001dB,2.07678384668681e+001°)
6.60693448007593e+001	(-3.65668490375776e+001dB,2.11125353617000e+001°)
6.76082975391978e+001	(-3.61136782971246e+001dB,2.14576687084581e+001°)
6.91830970918933e+001	(-3.56587858101791e+001dB,2.18029188484442e+001°)
7.07945784384134e+001	(-3.52021430824234e+001dB,2.21479517346475e+001°)
7.24435960074986e+001	(-3.47437230157281e+001dB,2.24924190729705e+001°)
7.41310241300914e+001	(-3.42835000371961e+001dB,2.28359585200804e+001°)
7.58577575029180e+001	(-3.38214502289422e+001dB,2.31781939399455e+001°)
7.76247116628688e+001	(-3.33575514563764e+001dB,2.35187357191768e+001°)
7.94328234724277e+001	(-3.28917834957142e+001dB,2.38571811424498e+001°)
8.12830516164095e+001	(-3.24241281590021e+001dB,2.41931148273489e+001°)
8.31763771102667e+001	(-3.19545694159033e+001dB,2.45261092182347e+001°)
8.51138038202372e+001	(-3.14830935125337e+001dB,2.48557251388532e+001°)
8.70963589956076e+001	(-3.10096890846069e+001dB,2.51815124003682e+001°)
8.91250938133741e+001	(-3.05343472667349e+001dB,2.55030104653806e+001°)
9.12010839355905e+001	(-3.00570617945863e+001dB,2.58197491625875e+001°)
9.33254300796986e+001	(-2.95778291011677e+001dB,2.61312494511844e+001°)
9.54992586021431e+001	(-2.90966484052976e+001dB,2.64370242300907e+001°)
9.77237220955805e+001	(-2.86135217926931e+001dB,2.67365791888656e+001°)
9.99999999999995e+001	(-2.81284542884826e+001dB,2.70294136956016e+001°)
1.02329299228075e+002	(-2.76414539207541e+001dB,2.73150217170046e+001°)
1.04712854805089e+002	(-2.71525317752247e+001dB,2.75928927659455e+001°)
1.07151930523760e+002	(-2.66617020401797e+001dB,2.78625128709796e+001°)
1.09647819614318e+002	(-2.61689820416816e+001dB,2.81233655626162e+001°)
1.12201845430196e+002	(-2.56743922695023e+001dB,2.83749328711242e+001°)
1.14815362149688e+002	(-2.51779563921084e+001dB,2.86166963290546e+001°)
1.17489755493952e+002	(-2.46797012632181e+001dB,2.88481379755591e+001°)
1.20226443461741e+002	(-2.41796569174692e+001dB,2.90687413538710e+001°)
1.23026877081237e+002	(-2.36778565575208e+001dB,2.92779924997407e+001°)
1.25892541179416e+002	(-2.31743365315805e+001dB,2.94753809142252e+001°)
1.28824955169313e+002	(-2.26691363022202e+001dB,2.96604005162417e+001°)
1.31825673855640e+002	(-2.21622984070935e+001dB,2.98325505715789e+001°)
1.34896288259165e+002	(-2.16538684116234e+001dB,2.99913365936063e+001°)
1.38038426460288e+002	(-2.11438948545396e+001dB,3.01362712127019e+001°)
1.41253754462275e+002	(-2.06324291865687e+001dB,3.02668750109573e+001°)
1.44543977074592e+002	(-2.01195257035566e+001dB,3.03826773209838e+001°)
1.47910838816820e+002	(-1.96052414734308e+001dB,3.04832169848386e+001°)
1.51356124843620e+002	(-1.90896362589934e+001dB,3.05680430736622e+001°)
1.54881661891247e+002	(-1.85727724365124e+001dB,3.06367155660350e+001°)
1.58489319246110e+002	(-1.80547149106979e+001dB,3.06888059849079e+001°)
1.62181009735892e+002	(-1.75355310269188e+001dB,3.07238979931679e+001°)
1.65958690743755e+002	(-1.70152904812427e+001dB,3.07415879481833e+001°)
1.69824365246173e+002	(-1.64940652287415e+001dB,3.07414854168620e+001°)
1.73780082874936e+002	(-1.59719293908744e+001dB,3.07232136519438e+001°)
1.77827941003891e+002	(-1.54489591619382e+001dB,3.06864100313768e+001°)
1.81970085860997e+002	(-1.49252327154415e+001dB,3.06307264627194e+001°)
1.86208713666286e+002	(-1.44008301108794e+001dB,3.05558297552946e+001°)
1.90546071796323e+002	(-1.38758332005243e+001dB,3.04614019611628e+001°)
1.94984459975803e+002	(-1.33503255374387e+001dB,3.03471406891133e+001°)
1.99526231496887e+002	(-1.28243922840601e+001dB,3.02127593927142e+001°)
2.04173794466952e+002	(-1.22981201222142e+001dB,3.00579876364401e+001°)
2.08929613085403e+002	(-1.17715971641560e+001dB,2.98825713414859e+001°)
2.13796208950222e+002	(-1.12449128645993e+001dB,2.96862730138195e+001°)
2.18776162394954e+002	(-1.07181579344524e+001dB,2.94688719583023e+001°)
2.23872113856832e+002	(-1.01914242549220e+001dB,2.92301644785407e+001°)
2.29086765276776e+002	(-9.66480479341989e+000dB,2.89699640680075e+001°)
2.34422881531991e+002	(-9.13839351938748e+000dB,2.86881015905146e+001°)
2.39883291901947e+002	(-8.61228532148598e+000dB,2.83844254552127e+001°)
2.45470891568501e+002	(-8.08657592466147e+000dB,2.80588017847170e+001°)
2.51188643150956e+002	(-7.56136180751784e+000dB,2.77111145790513e+001°)
2.57039578276885e+002	(-7.03674011939737e+000dB,2.73412658751772e+001°)
2.63026799189536e+002	(-6.51280859704791e+000dB,2.69491759032027e+001°)
2.69153480392690e+002	(-5.98966548055509e+000dB,2.65347832387123e+001°)
2.75422870333815e+002	(-5.46740942818666e+000dB,2.60980449516525e+001°)
2.81838293126443e+002	(-4.94613942997019e+000dB,2.56389367507114e+001°)
2.88403150312659e+002	(-4.42595471930360e+000dB,2.51574531213472e+001°)
2.95120922666637e+002	(-3.90695468326041e+000dB,2.46536074591010e+001°)
3.01995172040200e+002	(-3.38923877030947e+000dB,2.41274321933522e+001°)
3.09029543251357e+002	(-2.87290639599882e+000dB,2.35789789018876e+001°)
3.16227766016836e+002	(-2.35805684609360e+000dB,2.30083184137198e+001°)
3.23593656929626e+002	(-1.84478917690308e+000dB,2.24155408970806e+001°)
3.31131121482589e+002	(-1.33320211365712e+000dB,2.18007559333312e+001°)
3.38844156139200e+002	(-8.23393945138980e-001dB,2.11640925686192e+001°)
3.46736850452529e+002	(-3.15462416756296e-001dB,2.05056993482736e+001°)
3.54813389233573e+002	(1.90495380063063e-001dB,1.98257443229480e+001°)
3.63078054770099e+002	(6.94383119988292e-001dB,1.91244150322704e+001°)
3.71535229097170e+002	(1.19610535904840e+000dB,1.84019184559050e+001°)
3.80189396320558e+002	(1.69556765130997e+000dB,1.76584809354291e+001°)
3.89045144994278e+002	(2.19267666782267e+000dB,1.68943480611410e+001°)
3.98107170553494e+002	(2.68734031695919e+000dB,1.61097845223261e+001°)
4.07380277804110e+002	(3.17946786565262e+000dB,1.53050739209034e+001°)
4.16869383470332e+002	(3.66897006197932e+000dB,1.44805185425594e+001°)
4.26579518801589e+002	(4.15575925727658e+000dB,1.36364390895109e+001°)
4.36515832240163e+002	(4.63974952877635e+000dB,1.27731743678931e+001°)
4.46683592150960e+002	(5.12085680107817e+000dB,1.18910809345168e+001°)
4.57088189614872e+002	(5.59899896720151e+000dB,1.09905326959301e+001°)
4.67735141287195e+002	(6.07409600712776e+000dB,1.00719204671760e+001°)
4.78630092322635e+002	(6.54607010493977e+000dB,9.13565148358186e+000°)
4.89778819368443e+002	(7.01484576280436e+000dB,8.18214887089136e+000°)
5.01187233627268e+002	(7.48034991219928e+000dB,7.21185107087769e+000°)
5.12861383991361e+002	(7.94251202129118e+000dB,6.22521122640942e+000°)
5.24807460249769e+002	(8.40126419813503e+000dB,5.22269652638347e+000°)
5.37031796370249e+002	(8.85654128962884e+000dB,4.20478751112940e+000°)
5.49540873857620e+002	(9.30828097542759e+000dB,3.17197734106987e+000°)
5.62341325190345e+002	(9.75642385636265e+000dB,2.12477103243582e+000°)
5.75439937337152e+002	(1.02009135375110e+001dB,1.06368465807385e+000°)
