Circuit: * C:\Users\Guido\Documents\GitHub\TP_FE\Spice\Ej 2.asc

Vin: Missing value, assumed 0V @ DC
Direct Newton iteration for .op point succeeded.
Semiconductor Device Operating Points:
                        --- Bipolar Transistors ---
Name:       q1
Model:    bc547b
Ib:       4.11e-06
Ic:       1.21e-03
Vbe:      6.43e-01
Vbc:     -2.76e+00
Vce:      3.40e+00
BetaDC:   2.95e+02
Gm:       4.59e-02
Rpi:      6.37e+03
Rx:       1.00e+00
Ro:       5.32e+04
Cbe:      6.76e-11
Cbc:      1.25e-12
Cjs:      0.00e+00
BetaAC:   2.93e+02
Cbx:      7.70e-13
Ft:       1.05e+08



Date: Tue May 21 08:42:05 2019
Total elapsed time: 0.084 seconds.

tnom = 27
temp = 27
method = trap
totiter = 6
traniter = 0
tranpoints = 0
accept = 0
rejected = 0
matrix size = 12
fillins = 0
solver = Normal
Matrix Compiler1: 624 bytes object code size
Matrix Compiler2: 920 bytes object code size
