v1	V(n002)	I(R1)
-1.500000000000000e+001	-1.200929e+001	-6.363214e-003
-1.490000000000000e+001	-1.200833e+001	-6.152486e-003
-1.480000000000000e+001	-1.200731e+001	-5.941883e-003
-1.470000000000000e+001	-1.200628e+001	-5.731318e-003
-1.460000000000000e+001	-1.200521e+001	-5.520826e-003
-1.450000000000000e+001	-1.200411e+001	-5.310413e-003
-1.440000000000000e+001	-1.200296e+001	-5.100086e-003
-1.430000000000000e+001	-1.200177e+001	-4.889851e-003
-1.420000000000000e+001	-1.200053e+001	-4.679717e-003
-1.410000000000000e+001	-1.199924e+001	-4.469692e-003
-1.400000000000000e+001	-1.199790e+001	-4.259787e-003
-1.390000000000000e+001	-1.199649e+001	-4.050015e-003
-1.380000000000000e+001	-1.199502e+001	-3.840388e-003
-1.370000000000001e+001	-1.199347e+001	-3.630922e-003
-1.360000000000001e+001	-1.199183e+001	-3.421637e-003
-1.350000000000001e+001	-1.199010e+001	-3.212554e-003
-1.340000000000001e+001	-1.198826e+001	-3.003700e-003
-1.330000000000001e+001	-1.198630e+001	-2.795108e-003
-1.320000000000001e+001	-1.198420e+001	-2.586816e-003
-1.310000000000001e+001	-1.198193e+001	-2.378874e-003
-1.300000000000001e+001	-1.197947e+001	-2.171343e-003
-1.290000000000001e+001	-1.197678e+001	-1.964303e-003
-1.280000000000001e+001	-1.197381e+001	-1.757857e-003
-1.270000000000001e+001	-1.197049e+001	-1.552148e-003
-1.260000000000001e+001	-1.196673e+001	-1.347374e-003
-1.250000000000001e+001	-1.196240e+001	-1.143824e-003
-1.240000000000001e+001	-1.195729e+001	-9.419385e-004
-1.230000000000001e+001	-1.195105e+001	-7.424454e-004
-1.220000000000001e+001	-1.194307e+001	-5.466500e-004
-1.210000000000001e+001	-1.193211e+001	-3.572211e-004
-1.200000000000001e+001	-1.191441e+001	-1.820977e-004
-1.190000000000001e+001	-1.187855e+001	-4.563955e-005
-1.180000000000001e+001	-1.179901e+001	-2.109307e-006
-1.170000000000001e+001	-1.169998e+001	-4.586320e-008
-1.160000000000001e+001	-1.160000e+001	-9.717247e-010
-1.150000000000001e+001	-1.150000e+001	-3.163009e-011
-1.140000000000001e+001	-1.140000e+001	-1.183437e-011
-1.130000000000001e+001	-1.130000e+001	-1.132326e-011
-1.120000000000001e+001	-1.120000e+001	-1.121277e-011
-1.110000000000001e+001	-1.110000e+001	-1.111128e-011
-1.100000000000001e+001	-1.100000e+001	-1.101289e-011
-1.090000000000002e+001	-1.090000e+001	-1.091290e-011
-1.080000000000002e+001	-1.080000e+001	-1.081289e-011
-1.070000000000002e+001	-1.070000e+001	-1.071288e-011
-1.060000000000002e+001	-1.060000e+001	-1.061286e-011
-1.050000000000002e+001	-1.050000e+001	-1.051285e-011
-1.040000000000002e+001	-1.040000e+001	-1.041283e-011
-1.030000000000002e+001	-1.030000e+001	-1.031282e-011
-1.020000000000002e+001	-1.020000e+001	-1.021280e-011
-1.010000000000002e+001	-1.010000e+001	-1.011279e-011
-1.000000000000002e+001	-1.000000e+001	-1.001278e-011
-9.900000000000018e+000	-9.900000e+000	-9.912759e-012
-9.800000000000019e+000	-9.800000e+000	-9.812746e-012
-9.700000000000019e+000	-9.700000e+000	-9.712730e-012
-9.600000000000019e+000	-9.600000e+000	-9.612717e-012
-9.500000000000020e+000	-9.500000e+000	-9.512701e-012
-9.400000000000020e+000	-9.400000e+000	-9.412689e-012
-9.300000000000020e+000	-9.300000e+000	-9.312671e-012
-9.200000000000021e+000	-9.200000e+000	-9.212655e-012
-9.100000000000021e+000	-9.100000e+000	-9.112639e-012
-9.000000000000021e+000	-9.000000e+000	-9.012626e-012
-8.900000000000022e+000	-8.900000e+000	-8.912609e-012
-8.800000000000022e+000	-8.800000e+000	-8.812597e-012
-8.700000000000022e+000	-8.700000e+000	-8.712580e-012
-8.600000000000023e+000	-8.600000e+000	-8.612568e-012
-8.500000000000023e+000	-8.500000e+000	-8.512552e-012
-8.400000000000023e+000	-8.400000e+000	-8.412539e-012
-8.300000000000024e+000	-8.300000e+000	-8.312523e-012
-8.200000000000024e+000	-8.200000e+000	-8.212510e-012
-8.100000000000025e+000	-8.100000e+000	-8.112493e-012
-8.000000000000025e+000	-8.000000e+000	-8.012480e-012
-7.900000000000025e+000	-7.900000e+000	-7.912464e-012
-7.800000000000026e+000	-7.800000e+000	-7.812451e-012
-7.700000000000026e+000	-7.700000e+000	-7.712435e-012
-7.600000000000026e+000	-7.600000e+000	-7.612422e-012
-7.500000000000027e+000	-7.500000e+000	-7.512406e-012
-7.400000000000027e+000	-7.400000e+000	-7.412391e-012
-7.300000000000027e+000	-7.300000e+000	-7.312375e-012
-7.200000000000028e+000	-7.200000e+000	-7.212360e-012
-7.100000000000028e+000	-7.100000e+000	-7.112346e-012
-7.000000000000028e+000	-7.000000e+000	-7.012331e-012
-6.900000000000029e+000	-6.900000e+000	-6.912317e-012
-6.800000000000029e+000	-6.800000e+000	-6.812302e-012
-6.700000000000030e+000	-6.700000e+000	-6.712287e-012
-6.600000000000030e+000	-6.600000e+000	-6.612273e-012
-6.500000000000030e+000	-6.500000e+000	-6.512258e-012
-6.400000000000031e+000	-6.400000e+000	-6.412244e-012
-6.300000000000031e+000	-6.300000e+000	-6.312229e-012
-6.200000000000031e+000	-6.200000e+000	-6.212213e-012
-6.100000000000032e+000	-6.100000e+000	-6.112198e-012
-6.000000000000032e+000	-6.000000e+000	-6.012184e-012
-5.900000000000032e+000	-5.900000e+000	-5.912169e-012
-5.800000000000033e+000	-5.800000e+000	-5.812155e-012
-5.700000000000033e+000	-5.700000e+000	-5.712140e-012
-5.600000000000033e+000	-5.600000e+000	-5.612125e-012
-5.500000000000034e+000	-5.500000e+000	-5.512111e-012
-5.400000000000034e+000	-5.400000e+000	-5.412096e-012
-5.300000000000035e+000	-5.300000e+000	-5.312082e-012
-5.200000000000035e+000	-5.200000e+000	-5.212067e-012
-5.100000000000035e+000	-5.100000e+000	-5.112051e-012
-5.000000000000036e+000	-5.000000e+000	-5.012036e-012
-4.900000000000036e+000	-4.900000e+000	-4.912022e-012
-4.800000000000036e+000	-4.800000e+000	-4.812007e-012
-4.700000000000037e+000	-4.700000e+000	-4.711993e-012
-4.600000000000037e+000	-4.600000e+000	-4.611978e-012
-4.500000000000037e+000	-4.500000e+000	-4.511963e-012
-4.400000000000038e+000	-4.400000e+000	-4.411949e-012
-4.300000000000038e+000	-4.300000e+000	-4.311934e-012
-4.200000000000038e+000	-4.200000e+000	-4.211920e-012
-4.100000000000039e+000	-4.100000e+000	-4.111905e-012
-4.000000000000039e+000	-4.000000e+000	-4.011890e-012
-3.900000000000039e+000	-3.900000e+000	-3.911876e-012
-3.800000000000039e+000	-3.800000e+000	-3.811860e-012
-3.700000000000039e+000	-3.700000e+000	-3.711846e-012
-3.600000000000039e+000	-3.600000e+000	-3.611830e-012
-3.500000000000039e+000	-3.500000e+000	-3.511816e-012
-3.400000000000039e+000	-3.400000e+000	-3.411801e-012
-3.300000000000039e+000	-3.300000e+000	-3.311787e-012
-3.200000000000038e+000	-3.200000e+000	-3.211772e-012
-3.100000000000038e+000	-3.100000e+000	-3.111758e-012
-3.000000000000038e+000	-3.000000e+000	-3.011742e-012
-2.900000000000038e+000	-2.900000e+000	-2.911727e-012
-2.800000000000038e+000	-2.800000e+000	-2.811713e-012
-2.700000000000038e+000	-2.700000e+000	-2.711698e-012
-2.600000000000038e+000	-2.600000e+000	-2.611683e-012
-2.500000000000038e+000	-2.500000e+000	-2.511668e-012
-2.400000000000038e+000	-2.400000e+000	-2.411654e-012
-2.300000000000038e+000	-2.300000e+000	-2.311639e-012
-2.200000000000038e+000	-2.200000e+000	-2.211624e-012
-2.100000000000037e+000	-2.100000e+000	-2.111609e-012
-2.000000000000037e+000	-2.000000e+000	-2.011595e-012
-1.900000000000037e+000	-1.900000e+000	-1.911580e-012
-1.800000000000037e+000	-1.800000e+000	-1.811565e-012
-1.700000000000037e+000	-1.700000e+000	-1.711550e-012
-1.600000000000037e+000	-1.600000e+000	-1.611536e-012
-1.500000000000037e+000	-1.500000e+000	-1.511521e-012
-1.400000000000037e+000	-1.400000e+000	-1.411506e-012
-1.300000000000037e+000	-1.300000e+000	-1.311492e-012
-1.200000000000037e+000	-1.200000e+000	-1.211477e-012
-1.100000000000037e+000	-1.100000e+000	-1.111462e-012
-1.000000000000036e+000	-1.000000e+000	-1.011447e-012
-9.000000000000364e-001	-9.000000e-001	-9.114326e-013
-8.000000000000365e-001	-8.000000e-001	-8.114178e-013
-7.000000000000365e-001	-7.000000e-001	-7.114031e-013
-6.000000000000365e-001	-6.000000e-001	-6.113882e-013
-5.000000000000365e-001	-5.000000e-001	-5.113738e-013
-4.000000000000366e-001	-4.000000e-001	-4.113589e-013
-3.000000000000366e-001	-3.000000e-001	-3.113408e-013
-2.000000000000366e-001	-2.000000e-001	-2.113366e-013
-1.000000000000366e-001	-1.000000e-001	-1.109845e-013
-3.655409308578328e-014	-3.655409e-014	-5.103899e-026
9.999999999996345e-002	1.000000e-001	4.648708e-013
1.999999999999635e-001	2.000000e-001	1.271021e-011
2.999999999999635e-001	2.999998e-001	4.171028e-010
3.999999999999635e-001	3.999935e-001	1.387226e-008
4.999999999999635e-001	4.997846e-001	4.583844e-007
5.999999999999635e-001	5.941208e-001	1.250893e-005
6.999999999999634e-001	6.533239e-001	9.931075e-005
7.999999999999634e-001	6.802802e-001	2.547230e-004
8.999999999999634e-001	6.956234e-001	4.348438e-004
9.999999999999634e-001	7.060249e-001	6.254789e-004
1.099999999999964e+000	7.139964e-001	8.212843e-004
1.199999999999964e+000	7.202401e-001	1.020766e-003
1.299999999999964e+000	7.254456e-001	1.222456e-003
1.399999999999964e+000	7.299210e-001	1.425700e-003
1.499999999999964e+000	7.338380e-001	1.630132e-003
1.599999999999964e+000	7.373194e-001	1.835491e-003
1.699999999999964e+000	7.404530e-001	2.041589e-003
1.799999999999964e+000	7.433028e-001	2.248292e-003
1.899999999999964e+000	7.459169e-001	2.455496e-003
1.999999999999964e+000	7.483320e-001	2.663123e-003
2.099999999999964e+000	7.505769e-001	2.871113e-003
2.199999999999964e+000	7.526749e-001	3.079415e-003
2.299999999999964e+000	7.546446e-001	3.287990e-003
2.399999999999964e+000	7.565014e-001	3.496806e-003
2.499999999999965e+000	7.582580e-001	3.705834e-003
2.599999999999965e+000	7.599251e-001	3.915053e-003
2.699999999999965e+000	7.615120e-001	4.124443e-003
2.799999999999965e+000	7.630263e-001	4.333986e-003
2.899999999999965e+000	7.644748e-001	4.543670e-003
2.999999999999965e+000	7.658634e-001	4.753482e-003
3.099999999999965e+000	7.671970e-001	4.963411e-003
3.199999999999965e+000	7.684802e-001	5.173447e-003
3.299999999999965e+000	7.697169e-001	5.383581e-003
3.399999999999965e+000	7.709106e-001	5.593807e-003
3.499999999999965e+000	7.720644e-001	5.804118e-003
3.599999999999965e+000	7.731811e-001	6.014508e-003
3.699999999999966e+000	7.742634e-001	6.224972e-003
3.799999999999966e+000	7.753133e-001	6.435504e-003
3.899999999999966e+000	7.763330e-001	6.646100e-003
3.999999999999966e+000	7.773243e-001	6.856757e-003
4.099999999999966e+000	7.782889e-001	7.067470e-003
4.199999999999966e+000	7.792284e-001	7.278237e-003
4.299999999999965e+000	7.801442e-001	7.489055e-003
4.399999999999965e+000	7.810375e-001	7.699920e-003
4.499999999999965e+000	7.819096e-001	7.910831e-003
4.599999999999964e+000	7.827616e-001	8.121784e-003
4.699999999999964e+000	7.835945e-001	8.332778e-003
4.799999999999963e+000	7.844093e-001	8.543810e-003
4.899999999999963e+000	7.852068e-001	8.754879e-003
5.000000000000000e+000	7.859879e-001	8.965983e-003
