v1	V(n002)	I(R1)
-1.500000000000000e+001	-8.307469e-001	-3.014735e-002
-1.490000000000000e+001	-8.304442e-001	-2.993523e-002
-1.480000000000000e+001	-8.301388e-001	-2.972311e-002
-1.470000000000000e+001	-8.298327e-001	-2.951099e-002
-1.460000000000000e+001	-8.295252e-001	-2.929888e-002
-1.450000000000000e+001	-8.292161e-001	-2.908677e-002
-1.440000000000000e+001	-8.289055e-001	-2.887467e-002
-1.430000000000000e+001	-8.285934e-001	-2.866257e-002
-1.420000000000000e+001	-8.282797e-001	-2.845047e-002
-1.410000000000000e+001	-8.279645e-001	-2.823837e-002
-1.400000000000000e+001	-8.276477e-001	-2.802628e-002
-1.390000000000000e+001	-8.273292e-001	-2.781419e-002
-1.380000000000000e+001	-8.270091e-001	-2.760211e-002
-1.370000000000001e+001	-8.266873e-001	-2.739003e-002
-1.360000000000001e+001	-8.263637e-001	-2.717795e-002
-1.350000000000001e+001	-8.260385e-001	-2.696588e-002
-1.340000000000001e+001	-8.257115e-001	-2.675381e-002
-1.330000000000001e+001	-8.253827e-001	-2.654174e-002
-1.320000000000001e+001	-8.250521e-001	-2.632968e-002
-1.310000000000001e+001	-8.247197e-001	-2.611762e-002
-1.300000000000001e+001	-8.243853e-001	-2.590556e-002
-1.290000000000001e+001	-8.240491e-001	-2.569351e-002
-1.280000000000001e+001	-8.237110e-001	-2.548147e-002
-1.270000000000001e+001	-8.233708e-001	-2.526942e-002
-1.260000000000001e+001	-8.230287e-001	-2.505739e-002
-1.250000000000001e+001	-8.226845e-001	-2.484535e-002
-1.240000000000001e+001	-8.223383e-001	-2.463332e-002
-1.230000000000001e+001	-8.219899e-001	-2.442130e-002
-1.220000000000001e+001	-8.216394e-001	-2.420928e-002
-1.210000000000001e+001	-8.212867e-001	-2.399726e-002
-1.200000000000001e+001	-8.209319e-001	-2.378525e-002
-1.190000000000001e+001	-8.205747e-001	-2.357325e-002
-1.180000000000001e+001	-8.202153e-001	-2.336124e-002
-1.170000000000001e+001	-8.198535e-001	-2.314925e-002
-1.160000000000001e+001	-8.194893e-001	-2.293726e-002
-1.150000000000001e+001	-8.191227e-001	-2.272527e-002
-1.140000000000001e+001	-8.187536e-001	-2.251329e-002
-1.130000000000001e+001	-8.183820e-001	-2.230131e-002
-1.120000000000001e+001	-8.180079e-001	-2.208935e-002
-1.110000000000001e+001	-8.176311e-001	-2.187738e-002
-1.100000000000001e+001	-8.172516e-001	-2.166542e-002
-1.090000000000002e+001	-8.168695e-001	-2.145347e-002
-1.080000000000002e+001	-8.164845e-001	-2.124152e-002
-1.070000000000002e+001	-8.160968e-001	-2.102958e-002
-1.060000000000002e+001	-8.157061e-001	-2.081765e-002
-1.050000000000002e+001	-8.153125e-001	-2.060572e-002
-1.040000000000002e+001	-8.149159e-001	-2.039380e-002
-1.030000000000002e+001	-8.145162e-001	-2.018188e-002
-1.020000000000002e+001	-8.141134e-001	-1.996997e-002
-1.010000000000002e+001	-8.137074e-001	-1.975807e-002
-1.000000000000002e+001	-8.132981e-001	-1.954617e-002
-9.900000000000018e+000	-8.128855e-001	-1.933429e-002
-9.800000000000019e+000	-8.124694e-001	-1.912240e-002
-9.700000000000019e+000	-8.120499e-001	-1.891053e-002
-9.600000000000019e+000	-8.116269e-001	-1.869867e-002
-9.500000000000020e+000	-8.112001e-001	-1.848681e-002
-9.400000000000020e+000	-8.107697e-001	-1.827496e-002
-9.300000000000020e+000	-8.103354e-001	-1.806312e-002
-9.200000000000021e+000	-8.098972e-001	-1.785128e-002
-9.100000000000021e+000	-8.094550e-001	-1.763946e-002
-9.000000000000021e+000	-8.090087e-001	-1.742764e-002
-8.900000000000022e+000	-8.085582e-001	-1.721583e-002
-8.800000000000022e+000	-8.081034e-001	-1.700404e-002
-8.700000000000022e+000	-8.076443e-001	-1.679225e-002
-8.600000000000023e+000	-8.071806e-001	-1.658047e-002
-8.500000000000023e+000	-8.067123e-001	-1.636870e-002
-8.400000000000023e+000	-8.062392e-001	-1.615694e-002
-8.300000000000024e+000	-8.057612e-001	-1.594519e-002
-8.200000000000024e+000	-8.052782e-001	-1.573345e-002
-8.100000000000025e+000	-8.047901e-001	-1.552172e-002
-8.000000000000025e+000	-8.042967e-001	-1.531001e-002
-7.900000000000025e+000	-8.037979e-001	-1.509830e-002
-7.800000000000026e+000	-8.032935e-001	-1.488661e-002
-7.700000000000026e+000	-8.027834e-001	-1.467493e-002
-7.600000000000026e+000	-8.022673e-001	-1.446326e-002
-7.500000000000027e+000	-8.017452e-001	-1.425161e-002
-7.400000000000027e+000	-8.012168e-001	-1.403996e-002
-7.300000000000027e+000	-8.006819e-001	-1.382834e-002
-7.200000000000028e+000	-8.001404e-001	-1.361672e-002
-7.100000000000028e+000	-7.995921e-001	-1.340512e-002
-7.000000000000028e+000	-7.990367e-001	-1.319354e-002
-6.900000000000029e+000	-7.984740e-001	-1.298197e-002
-6.800000000000029e+000	-7.979038e-001	-1.277042e-002
-6.700000000000030e+000	-7.973257e-001	-1.255888e-002
-6.600000000000030e+000	-7.967396e-001	-1.234736e-002
-6.500000000000030e+000	-7.961453e-001	-1.213586e-002
-6.400000000000031e+000	-7.955422e-001	-1.192438e-002
-6.300000000000031e+000	-7.949303e-001	-1.171291e-002
-6.200000000000031e+000	-7.943091e-001	-1.150147e-002
-6.100000000000032e+000	-7.936784e-001	-1.129005e-002
-6.000000000000032e+000	-7.930377e-001	-1.107864e-002
-5.900000000000032e+000	-7.923867e-001	-1.086726e-002
-5.800000000000033e+000	-7.917250e-001	-1.065590e-002
-5.700000000000033e+000	-7.910521e-001	-1.044457e-002
-5.600000000000033e+000	-7.903676e-001	-1.023326e-002
-5.500000000000034e+000	-7.896710e-001	-1.002198e-002
-5.400000000000034e+000	-7.889618e-001	-9.810720e-003
-5.300000000000035e+000	-7.882395e-001	-9.599490e-003
-5.200000000000035e+000	-7.875035e-001	-9.388290e-003
-5.100000000000035e+000	-7.867532e-001	-9.177121e-003
-5.000000000000036e+000	-7.859879e-001	-8.965983e-003
-4.900000000000036e+000	-7.852068e-001	-8.754879e-003
-4.800000000000036e+000	-7.844093e-001	-8.543810e-003
-4.700000000000037e+000	-7.835945e-001	-8.332778e-003
-4.600000000000037e+000	-7.827616e-001	-8.121784e-003
-4.500000000000037e+000	-7.819096e-001	-7.910831e-003
-4.400000000000038e+000	-7.810375e-001	-7.699920e-003
-4.300000000000038e+000	-7.801442e-001	-7.489055e-003
-4.200000000000038e+000	-7.792284e-001	-7.278237e-003
-4.100000000000039e+000	-7.782889e-001	-7.067470e-003
-4.000000000000039e+000	-7.773243e-001	-6.856757e-003
-3.900000000000039e+000	-7.763330e-001	-6.646100e-003
-3.800000000000039e+000	-7.753133e-001	-6.435504e-003
-3.700000000000039e+000	-7.742634e-001	-6.224972e-003
-3.600000000000039e+000	-7.731811e-001	-6.014508e-003
-3.500000000000039e+000	-7.720644e-001	-5.804118e-003
-3.400000000000039e+000	-7.709106e-001	-5.593807e-003
-3.300000000000039e+000	-7.697169e-001	-5.383581e-003
-3.200000000000038e+000	-7.684801e-001	-5.173447e-003
-3.100000000000038e+000	-7.671970e-001	-4.963411e-003
-3.000000000000038e+000	-7.658634e-001	-4.753482e-003
-2.900000000000038e+000	-7.644748e-001	-4.543670e-003
-2.800000000000038e+000	-7.630263e-001	-4.333986e-003
-2.700000000000038e+000	-7.615120e-001	-4.124443e-003
-2.600000000000038e+000	-7.599251e-001	-3.915053e-003
-2.500000000000038e+000	-7.582579e-001	-3.705834e-003
-2.400000000000038e+000	-7.565013e-001	-3.496806e-003
-2.300000000000038e+000	-7.546445e-001	-3.287990e-003
-2.200000000000038e+000	-7.526748e-001	-3.079415e-003
-2.100000000000037e+000	-7.505767e-001	-2.871113e-003
-2.000000000000037e+000	-7.483316e-001	-2.663124e-003
-1.900000000000037e+000	-7.459164e-001	-2.455497e-003
-1.800000000000037e+000	-7.433021e-001	-2.248293e-003
-1.700000000000037e+000	-7.404519e-001	-2.041592e-003
-1.600000000000037e+000	-7.373175e-001	-1.835495e-003
-1.500000000000037e+000	-7.338347e-001	-1.630139e-003
-1.400000000000037e+000	-7.299152e-001	-1.425712e-003
-1.300000000000037e+000	-7.254325e-001	-1.222484e-003
-1.200000000000037e+000	-7.201980e-001	-1.020855e-003
-1.100000000000037e+000	-7.139125e-001	-8.214627e-004
-1.000000000000036e+000	-7.060633e-001	-6.253972e-004
-9.000000000000364e-001	-6.956734e-001	-4.347374e-004
-8.000000000000365e-001	-6.802300e-001	-2.548298e-004
-7.000000000000365e-001	-6.533127e-001	-9.933457e-005
-6.000000000000365e-001	-5.941208e-001	-1.250895e-005
-5.000000000000365e-001	-4.997846e-001	-4.583556e-007
-4.000000000000366e-001	-3.999935e-001	-1.387226e-008
-3.000000000000366e-001	-2.999998e-001	-4.170922e-010
-2.000000000000366e-001	-2.000000e-001	-1.271020e-011
-1.000000000000366e-001	-1.000000e-001	-4.648555e-013
-3.655409308578328e-014	-3.655409e-014	-5.082064e-026
9.999999999996345e-002	1.000000e-001	1.109606e-013
1.999999999999635e-001	2.000000e-001	2.112898e-013
2.999999999999635e-001	3.000000e-001	3.112998e-013
3.999999999999635e-001	4.000000e-001	4.113001e-013
4.999999999999635e-001	5.000000e-001	5.112999e-013
5.999999999999635e-001	6.000000e-001	6.112999e-013
6.999999999999634e-001	7.000000e-001	7.113001e-013
7.999999999999634e-001	8.000000e-001	8.113000e-013
8.999999999999634e-001	9.000000e-001	9.113001e-013
9.999999999999634e-001	1.000000e+000	1.011300e-012
1.099999999999964e+000	1.100000e+000	1.111300e-012
1.199999999999964e+000	1.200000e+000	1.211300e-012
1.299999999999964e+000	1.300000e+000	1.311300e-012
1.399999999999964e+000	1.400000e+000	1.411300e-012
1.499999999999964e+000	1.500000e+000	1.511300e-012
1.599999999999964e+000	1.600000e+000	1.611300e-012
1.699999999999964e+000	1.700000e+000	1.711300e-012
1.799999999999964e+000	1.800000e+000	1.811300e-012
1.899999999999964e+000	1.900000e+000	1.911300e-012
1.999999999999964e+000	2.000000e+000	2.011300e-012
2.099999999999964e+000	2.100000e+000	2.111300e-012
2.199999999999964e+000	2.200000e+000	2.211300e-012
2.299999999999964e+000	2.300000e+000	2.311300e-012
2.399999999999964e+000	2.400000e+000	2.411299e-012
2.499999999999965e+000	2.500000e+000	2.511300e-012
2.599999999999965e+000	2.600000e+000	2.611300e-012
2.699999999999965e+000	2.700000e+000	2.711300e-012
2.799999999999965e+000	2.800000e+000	2.811300e-012
2.899999999999965e+000	2.900000e+000	2.911301e-012
2.999999999999965e+000	3.000000e+000	3.011300e-012
3.099999999999965e+000	3.100000e+000	3.111299e-012
3.199999999999965e+000	3.200000e+000	3.211300e-012
3.299999999999965e+000	3.300000e+000	3.311299e-012
3.399999999999965e+000	3.400000e+000	3.411300e-012
3.499999999999965e+000	3.500000e+000	3.511300e-012
3.599999999999965e+000	3.600000e+000	3.611299e-012
3.699999999999966e+000	3.700000e+000	3.711301e-012
3.799999999999966e+000	3.800000e+000	3.811300e-012
3.899999999999966e+000	3.900000e+000	3.911299e-012
3.999999999999966e+000	4.000000e+000	4.011300e-012
4.099999999999966e+000	4.100000e+000	4.111299e-012
4.199999999999966e+000	4.200000e+000	4.211300e-012
4.299999999999965e+000	4.300000e+000	4.311299e-012
4.399999999999965e+000	4.400000e+000	4.411299e-012
4.499999999999965e+000	4.500000e+000	4.511300e-012
4.599999999999964e+000	4.600000e+000	4.611300e-012
4.699999999999964e+000	4.700000e+000	4.711299e-012
4.799999999999963e+000	4.800000e+000	4.811298e-012
4.899999999999963e+000	4.900000e+000	4.911300e-012
5.000000000000000e+000	5.000000e+000	5.011301e-012
